! Touchstone file from project dualpolar_0409
! Exported from HFSS 2018.0.0
! Variables:
!  feed_posx = 13mm
!  feed_rad = 0.5mm
!  lam = 90mm
!  patchh = 0mm
!  subh = 0.8mm
!  subx = 90mm
!  suby = 90mm
!  upatchx = 40mm
!  upatchy = 40mm
# GHZ S MA R 50.000000
! Modal data exported
! Port[1] = 1:1
1                0.996206225764474 142.041591567571 
! Gamma         !               0                0                
! Port Impedance50               0                

1.005            0.99618220246734 141.798841273318 
! Gamma         !               0                0                
! Port Impedance50               0                

1.01             0.996158642718813 141.555848397177 
! Gamma         !               0                0                
! Port Impedance50               0                

1.015            0.996135499322441 141.312604917459 
! Gamma         !               0                0                
! Port Impedance50               0                

1.02             0.99611272545003 141.069102642213 
! Gamma         !               0                0                
! Port Impedance50               0                

1.025            0.996090274601782 140.825333202434 
! Gamma         !               0                0                
! Port Impedance50               0                

1.03             0.996068100566035 140.581288045025 
! Gamma         !               0                0                
! Port Impedance50               0                

1.035            0.996046157378522 140.336958425478 
! Gamma         !               0                0                
! Port Impedance50               0                

1.04             0.99602439928109 140.092335400297 
! Gamma         !               0                0                
! Port Impedance50               0                

1.045            0.996002780679787 139.847409819112 
! Gamma         !               0                0                
! Port Impedance50               0                

1.05             0.995981256102241 139.602172316497 
! Gamma         !               0                0                
! Port Impedance50               0                

1.055            0.995959780154255 139.356613303464 
! Gamma         !               0                0                
! Port Impedance50               0                

1.06             0.995938307475521 139.110722958613 
! Gamma         !               0                0                
! Port Impedance50               0                

1.065            0.995916792694368 138.864491218939 
! Gamma         !               0                0                
! Port Impedance50               0                

1.07             0.995895190381439 138.61790777026  
! Gamma         !               0                0                
! Port Impedance50               0                

1.075            0.995873455002209 138.370962037247 
! Gamma         !               0                0                
! Port Impedance50               0                

1.08             0.995851540868228 138.123643173056 
! Gamma         !               0                0                
! Port Impedance50               0                

1.085            0.995829402086975 137.875940048515 
! Gamma         !               0                0                
! Port Impedance50               0                

1.09             0.99580699251022 137.627841240861 
! Gamma         !               0                0                
! Port Impedance50               0                

1.095            0.995784265680744 137.379335021997 
! Gamma         !               0                0                
! Port Impedance50               0                

1.1              0.995761174777313 137.130409346237 
! Gamma         !               0                0                
! Port Impedance50               0                

1.105            0.995737672557739 136.881051837531 
! Gamma         !               0                0                
! Port Impedance50               0                

1.11             0.995713711299903 136.631249776122 
! Gamma         !               0                0                
! Port Impedance50               0                

1.115            0.99568924274056 136.380990084607 
! Gamma         !               0                0                
! Port Impedance50               0                

1.12             0.995664218011778 136.13025931339  
! Gamma         !               0                0                
! Port Impedance50               0                

1.125            0.995638587574812 135.879043625462 
! Gamma         !               0                0                
! Port Impedance50               0                

1.13             0.995612301151246 135.627328780498 
! Gamma         !               0                0                
! Port Impedance50               0                

1.135            0.995585307651169 135.37510011822  
! Gamma         !               0                0                
! Port Impedance50               0                

1.14             0.9955575550982  135.122342540983 
! Gamma         !               0                0                
! Port Impedance50               0                

1.145            0.995528990551105 134.869040495554 
! Gamma         !               0                0                
! Port Impedance50               0                

1.15             0.995499560021771 134.615177954015 
! Gamma         !               0                0                
! Port Impedance50               0                

1.155            0.995469208389267 134.360738393768 
! Gamma         !               0                0                
! Port Impedance50               0                

1.16             0.995437879309698 134.105704776569 
! Gamma         !               0                0                
! Port Impedance50               0                

1.165            0.995405515121571 133.850059526538 
! Gamma         !               0                0                
! Port Impedance50               0                

1.17             0.995372056746316 133.593784507098 
! Gamma         !               0                0                
! Port Impedance50               0                

1.175            0.995337443583624 133.336860996761 
! Gamma         !               0                0                
! Port Impedance50               0                

1.18             0.995301613401223 133.07926966371  
! Gamma         !               0                0                
! Port Impedance50               0                

1.185            0.995264502218689 132.82099053909  
! Gamma         !               0                0                
! Port Impedance50               0                

1.19             0.995226044184831 132.562002988946 
! Gamma         !               0                0                
! Port Impedance50               0                

1.195            0.995186171448204 132.302285684704 
! Gamma         !               0                0                
! Port Impedance50               0                

1.2              0.995144814020229 132.041816572127 
! Gamma         !               0                0                
! Port Impedance50               0                

1.205            0.995101899630356 131.780572838646 
! Gamma         !               0                0                
! Port Impedance50               0                

1.21             0.995057353572705 131.518530878947 
! Gamma         !               0                0                
! Port Impedance50               0                

1.215            0.995011098543507 131.255666258736 
! Gamma         !               0                0                
! Port Impedance50               0                

1.22             0.99496305446868 130.991953676536 
! Gamma         !               0                0                
! Port Impedance50               0                

1.225            0.994913138320771 130.727366923408 
! Gamma         !               0                0                
! Port Impedance50               0                

1.23             0.994861263924449 130.461878840458 
! Gamma         !               0                0                
! Port Impedance50               0                

1.235            0.994807341749675 130.195461273978 
! Gamma         !               0                0                
! Port Impedance50               0                

1.24             0.994751278691575 129.928085028084 
! Gamma         !               0                0                
! Port Impedance50               0                

1.245            0.994692977835991 129.659719814659 
! Gamma         !               0                0                
! Port Impedance50               0                

1.25             0.994632338209561 129.390334200442 
! Gamma         !               0                0                
! Port Impedance50               0                

1.255            0.994569254513114 129.119895551063 
! Gamma         !               0                0                
! Port Impedance50               0                

1.26             0.994503616837025 128.848369971815 
! Gamma         !               0                0                
! Port Impedance50               0                

1.265            0.994435310357083 128.575722244932 
! Gamma         !               0                0                
! Port Impedance50               0                

1.27             0.994364215009269 128.301915763147 
! Gamma         !               0                0                
! Port Impedance50               0                

1.275            0.994290205141719 128.026912459251 
! Gamma         !               0                0                
! Port Impedance50               0                

1.28             0.994213149141965 127.750672731382 
! Gamma         !               0                0                
! Port Impedance50               0                

1.285            0.994132909037394 127.473155363731 
! Gamma         !               0                0                
! Port Impedance50               0                

1.29             0.99404934006664 127.19431744234  
! Gamma         !               0                0                
! Port Impedance50               0                

1.295            0.993962290219447 126.914114265627 
! Gamma         !               0                0                
! Port Impedance50               0                

1.3              0.993871599742265 126.632499249255 
! Gamma         !               0                0                
! Port Impedance50               0                

1.305            0.993777100606604 126.349423824927 
! Gamma         !               0                0                
! Port Impedance50               0                

1.31             0.993678615936869 126.064837332633 
! Gamma         !               0                0                
! Port Impedance50               0                

1.315            0.99357595939406 125.778686905875 
! Gamma         !               0                0                
! Port Impedance50               0                

1.32             0.993468934511406 125.490917349315 
! Gamma         !               0                0                
! Port Impedance50               0                

1.325            0.993357333977535 125.20147100826  
! Gamma         !               0                0                
! Port Impedance50               0                

1.33             0.993240938862399 124.910287629348 
! Gamma         !               0                0                
! Port Impedance50               0                

1.335            0.993119517780632 124.617304211733 
! Gamma         !               0                0                
! Port Impedance50               0                

1.34             0.99299282598649 124.322454848012 
! Gamma         !               0                0                
! Port Impedance50               0                

1.345            0.99286060439389 124.025670554054 
! Gamma         !               0                0                
! Port Impedance50               0                

1.35             0.992722578514376 123.726879086834 
! Gamma         !               0                0                
! Port Impedance50               0                

1.355            0.992578457305066 123.426004749265 
! Gamma         !               0                0                
! Port Impedance50               0                

1.36             0.992427931917766 123.122968180946 
! Gamma         !               0                0                
! Port Impedance50               0                

1.365            0.992270674339446 122.817686133629 
! Gamma         !               0                0                
! Port Impedance50               0                

1.37             0.992106335913225 122.510071230093 
! Gamma         !               0                0                
! Port Impedance50               0                

1.375            0.991934545727687 122.200031704989 
! Gamma         !               0                0                
! Port Impedance50               0                

1.38             0.991754908861084 121.887471126068 
! Gamma         !               0                0                
! Port Impedance50               0                

1.385            0.991567004465303 121.572288094046 
! Gamma         !               0                0                
! Port Impedance50               0                

1.39             0.991370383672755 121.254375919196 
! Gamma         !               0                0                
! Port Impedance50               0                

1.395            0.991164567307365 120.933622272533 
! Gamma         !               0                0                
! Port Impedance50               0                

1.4              0.990949043378508 120.609908809258 
! Gamma         !               0                0                
! Port Impedance50               0                

1.405            0.990723264334213 120.283110761867 
! Gamma         !               0                0                
! Port Impedance50               0                

1.41             0.990486644047025 119.953096500066 
! Gamma         !               0                0                
! Port Impedance50               0                

1.415            0.990238554502558 119.619727054292 
! Gamma         !               0                0                
! Port Impedance50               0                

1.42             0.989978322157011 119.282855599344 
! Gamma         !               0                0                
! Port Impedance50               0                

1.425            0.989705223925567 118.942326894168 
! Gamma         !               0                0                
! Port Impedance50               0                

1.43             0.989418482758655 118.597976673452 
! Gamma         !               0                0                
! Port Impedance50               0                

1.435            0.989117262757372 118.249630986174 
! Gamma         !               0                0                
! Port Impedance50               0                

1.44             0.98880066377286 117.89710547565  
! Gamma         !               0                0                
! Port Impedance50               0                

1.445            0.988467715426955 117.540204595051 
! Gamma         !               0                0                
! Port Impedance50               0                

1.45             0.988117370482801 117.178720751587 
! Gamma         !               0                0                
! Port Impedance50               0                

1.455            0.987748497484212 116.812433371762 
! Gamma         !               0                0                
! Port Impedance50               0                

1.46             0.987359872571059 116.441107879166 
! Gamma         !               0                0                
! Port Impedance50               0                

1.465            0.98695017036468 116.064494575237 
! Gamma         !               0                0                
! Port Impedance50               0                

1.47             0.986517953801916 115.682327412171 
! Gamma         !               0                0                
! Port Impedance50               0                

1.475            0.986061662778404 115.294322645852 
! Gamma         !               0                0                
! Port Impedance50               0                

1.48             0.985579601440933 114.900177355033 
! Gamma         !               0                0                
! Port Impedance50               0                

1.485            0.985069923944305 114.499567811267 
! Gamma         !               0                0                
! Port Impedance50               0                

1.49             0.984530618459607 114.092147681958 
! Gamma         !               0                0                
! Port Impedance50               0                

1.495            0.98395948918747 113.677546046584 
! Gamma         !               0                0                
! Port Impedance50               0                

1.5              0.98335413609061 113.25536520338  
! Gamma         !               0                0                
! Port Impedance50               0                

1.505            0.98271193201379 112.825178240628 
! Gamma         !               0                0                
! Port Impedance50               0                

1.51             0.98202999680483 112.38652634306  
! Gamma         !               0                0                
! Port Impedance50               0                

1.515            0.981305167985831 111.938915799669 
! Gamma         !               0                0                
! Port Impedance50               0                

1.52             0.980533967447358 111.481814674329 
! Gamma         !               0                0                
! Port Impedance50               0                

1.525            0.979712563547497 111.014649094954 
! Gamma         !               0                0                
! Port Impedance50               0                

1.53             0.978836727889493 110.536799110298 
! Gamma         !               0                0                
! Port Impedance50               0                

1.535            0.977901785922453 110.047594055821 
! Gamma         !               0                0                
! Port Impedance50               0                

1.54             0.976902560354851 109.546307360995 
! Gamma         !               0                0                
! Port Impedance50               0                

1.545            0.975833306184873 109.032150719918 
! Gamma         !               0                0                
! Port Impedance50               0                

1.55             0.974687635928125 108.504267534725 
! Gamma         !               0                0                
! Port Impedance50               0                

1.555            0.973458433353632 107.961725526756 
! Gamma         !               0                0                
! Port Impedance50               0                

1.56             0.972137753712917 107.403508393389 
! Gamma         !               0                0                
! Port Impedance50               0                

1.565            0.970716708051559 106.828506368292 
! Gamma         !               0                0                
! Port Impedance50               0                

1.57             0.969185328712038 106.235505519119 
